T7214 1641:241.646   SEGGER J-Link V7.50 Log File
T7214 1641:241.719   DLL Compiled: Jul  1 2021 17:37:28
T7214 1641:241.725   Logging started @ 2026-08-11 07:08
T7214 1641:241.730 - 5269.683ms
T7214 1641:241.757 JLINK_SetWarnOutHandler(...)
T7214 1641:241.762 - 0.007ms
T7214 1641:241.769 JLINK_OpenEx(...)
T7214 1641:243.206   Firmware: J-Link V9 compiled May  7 2021 16:26:12
T7214 1641:243.516   Firmware: J-Link V9 compiled May  7 2021 16:26:12
T7214 1641:243.653   Decompressing FW timestamp took 120 us
T7214 1641:249.518   Hardware: V9.60
T7214 1641:249.536   S/N: 69604706
T7214 1641:249.543   OEM: SEGGER
T7214 1641:249.551   Feature(s): GDB, RDI, FlashBP, FlashDL, JFlash
T7214 1641:250.463   TELNET listener socket opened on port 19021
T7214 1641:257.683   Device "PY32F002B" selected.
T7214 1641:258.575   WEBSRV Starting webserver
T7214 1641:258.875   WEBSRV Webserver running on local port 19080
T7214 1641:258.888 - 17.121ms returns "O.K."
T7214 1641:258.911 JLINK_GetEmuCaps()
T7214 1641:258.917 - 0.008ms returns 0xB9FF7BBF
T7214 1641:258.927 JLINK_TIF_GetAvailable(...)
T7214 1641:259.080 - 0.158ms
T7214 1641:259.095 JLINK_SetErrorOutHandler(...)
T7214 1641:259.101 - 0.008ms
T7214 1641:259.357 JLINK_ExecCommand("ProjectFile = "D:\0-WORK-0\PUYA\PY32F002B\MDK-ARM\JLinkSettings.ini"", ...). 
T7214 1641:262.338   Device "PY32F002B" selected.
T7214 1641:262.768 - 3.417ms returns 0x00
T7214 1641:263.288 JLINK_ExecCommand("Device = PY32F002Bx5", ...). 
T7214 1641:264.325   Device "PY32F002B" selected.
T7214 1641:264.782 - 1.486ms returns 0x00
T7214 1641:264.809 JLINK_GetHardwareVersion()
T7214 1641:264.816 - 0.009ms returns 96000
T7214 1641:264.824 JLINK_GetDLLVersion()
T7214 1641:264.830 - 0.008ms returns 75000
T7214 1641:264.838 JLINK_GetOEMString(...)
T7214 1641:264.848 JLINK_GetFirmwareString(...)
T7214 1641:264.855 - 0.010ms
T7214 1641:269.829 JLINK_GetDLLVersion()
T7214 1641:269.851 - 0.024ms returns 75000
T7214 1641:269.863 JLINK_GetCompileDateTime()
T7214 1641:269.868 - 0.007ms
T7214 1641:272.433 JLINK_GetFirmwareString(...)
T7214 1641:272.451 - 0.021ms
T7214 1641:281.076 JLINK_GetHardwareVersion()
T7214 1641:281.098 - 0.024ms returns 96000
T7214 1641:283.654 JLINK_GetSN()
T7214 1641:283.676 - 0.024ms returns 69604706
T7214 1641:285.392 JLINK_GetOEMString(...)
T7214 1641:289.895 JLINK_TIF_Select(JLINKARM_TIF_SWD)
T7214 1641:290.423 - 0.539ms returns 0x00
T7214 1641:290.444 JLINK_HasError()
T7214 1641:290.453 JLINK_SetSpeed(5000)
T7214 1641:290.517 - 0.071ms
T7214 1641:290.533 JLINK_GetId()
T7214 1641:292.812   Found SW-DP with ID 0x0BC11477
T7214 1641:296.883   DPIDR: 0x0BC11477
T7214 1641:298.968   Scanning AP map to find all available APs
T7214 1641:301.256   AP[1]: Stopped AP scan as end of AP map has been reached
T7214 1641:303.221   AP[0]: AHB-AP (IDR: 0x04770031)
T7214 1641:305.323   Iterating through AP map to find AHB-AP to use
T7214 1641:307.702   AP[0]: Core found
T7214 1641:309.339   AP[0]: AHB-AP ROM base: 0xE00FF000
T7214 1641:311.341   CPUID register: 0x410CC601. Implementer code: 0x41 (ARM)
T7214 1641:312.995   Found Cortex-M0 r0p1, Little endian.
T7214 1641:413.502   -- Max. mem block: 0x00010C40
T7214 1641:413.625   CPU_ReadMem(4 bytes @ 0xE000EDF0)
T7214 1641:413.929   CPU_WriteMem(4 bytes @ 0xE000EDF0)
T7214 1641:414.180   CPU_ReadMem(4 bytes @ 0xE0002000)
T7214 1641:416.751   FPUnit: 4 code (BP) slots and 0 literal slots
T7214 1641:416.778   CPU_ReadMem(4 bytes @ 0xE000EDFC)
T7214 1641:417.044   CPU_WriteMem(4 bytes @ 0xE000EDFC)
T7214 1641:417.334   CPU_ReadMem(4 bytes @ 0xE0001000)
T7214 1641:417.579   CPU_WriteMem(4 bytes @ 0xE0001000)
T7214 1641:419.813   CoreSight components:
T7214 1641:421.608   ROMTbl[0] @ E00FF000
T7214 1641:421.625   CPU_ReadMem(64 bytes @ 0xE00FF000)
T7214 1641:422.246   CPU_ReadMem(32 bytes @ 0xE000EFE0)
T7214 1641:424.471   ROMTbl[0][0]: E000E000, CID: B105E00D, PID: 000BB008 SCS
T7214 1641:424.487   CPU_ReadMem(32 bytes @ 0xE0001FE0)
T7214 1641:426.614   ROMTbl[0][1]: E0001000, CID: B105E00D, PID: 000BB00A DWT
T7214 1641:426.683   CPU_ReadMem(32 bytes @ 0xE0002FE0)
T7214 1641:428.829   ROMTbl[0][2]: E0002000, CID: B105E00D, PID: 000BB00B FPB
T7214 1641:429.054 - 138.527ms returns 0x0BC11477
T7214 1641:429.071 JLINK_GetDLLVersion()
T7214 1641:429.077 - 0.008ms returns 75000
T7214 1641:429.088 JLINK_CORE_GetFound()
T7214 1641:429.094 - 0.008ms returns 0x60000FF
T7214 1641:429.101 JLINK_GetDebugInfo(0x100 = JLINKARM_ROM_TABLE_ADDR_INDEX)
T7214 1641:429.107   Value=0xE00FF000
T7214 1641:429.115 - 0.016ms returns 0
T7214 1641:430.836 JLINK_GetDebugInfo(0x100 = JLINKARM_ROM_TABLE_ADDR_INDEX)
T7214 1641:430.848   Value=0xE00FF000
T7214 1641:430.855 - 0.021ms returns 0
T7214 1641:430.862 JLINK_GetDebugInfo(0x101 = JLINKARM_DEBUG_INFO_ETM_ADDR_INDEX)
T7214 1641:430.867   Value=0x00000000
T7214 1641:430.874 - 0.015ms returns 0
T7214 1641:430.883 JLINK_ReadMemEx(0xE0041FF0, 0x10 Bytes, Flags = 0x02000004)
T7214 1641:430.897   CPU_ReadMem(16 bytes @ 0xE0041FF0)
T7214 1641:431.195   Data:  00 00 00 00 00 00 00 00 00 00 00 00 00 00 00 00
T7214 1641:431.209 - 0.337ms returns 16 (0x10)
T7214 1641:431.229 JLINK_GetDebugInfo(0x102 = JLINKARM_DEBUG_INFO_MTB_ADDR_INDEX)
T7214 1641:431.237   Value=0x00000000
T7214 1641:431.247 - 0.021ms returns 0
T7214 1641:431.254 JLINK_GetDebugInfo(0x103 = JLINKARM_DEBUG_INFO_TPIU_ADDR_INDEX)
T7214 1641:431.260   Value=0x00000000
T7214 1641:431.267 - 0.015ms returns 0
T7214 1641:431.273 JLINK_ReadMemEx(0xE0040FF0, 0x10 Bytes, Flags = 0x02000004)
T7214 1641:431.287   CPU_ReadMem(16 bytes @ 0xE0040FF0)
T7214 1641:431.630   Data:  00 00 00 00 00 00 00 00 00 00 00 00 00 00 00 00
T7214 1641:431.642 - 0.371ms returns 16 (0x10)
T7214 1641:431.650 JLINK_GetDebugInfo(0x104 = JLINKARM_DEBUG_INFO_ITM_ADDR_INDEX)
T7214 1641:431.656   Value=0xE0000000
T7214 1641:431.663 - 0.015ms returns 0
T7214 1641:431.669 JLINK_GetDebugInfo(0x105 = JLINKARM_DEBUG_INFO_DWT_ADDR_INDEX)
T7214 1641:431.675   Value=0xE0001000
T7214 1641:431.682 - 0.015ms returns 0
T7214 1641:431.688 JLINK_GetDebugInfo(0x106 = JLINKARM_DEBUG_INFO_FPB_ADDR_INDEX)
T7214 1641:431.693   Value=0xE0002000
T7214 1641:431.700 - 0.014ms returns 0
T7214 1641:431.706 JLINK_GetDebugInfo(0x107 = JLINKARM_DEBUG_INFO_NVIC_ADDR_INDEX)
T7214 1641:431.711   Value=0xE000E000
T7214 1641:431.719 - 0.014ms returns 0
T7214 1641:431.725 JLINK_GetDebugInfo(0x10C = JLINKARM_DEBUG_INFO_DBG_ADDR_INDEX)
T7214 1641:431.730   Value=0xE000EDF0
T7214 1641:431.737 - 0.014ms returns 0
T7214 1641:431.743 JLINK_GetDebugInfo(0x01 = Unknown)
T7214 1641:431.749   Value=0x00000000
T7214 1641:431.756 - 0.015ms returns 0
T7214 1641:431.765 JLINK_ReadMemU32(0xE000ED00, 0x1 Items)
T7214 1641:431.774   CPU_ReadMem(4 bytes @ 0xE000ED00)
T7214 1641:432.099   Data:  01 C6 0C 41
T7214 1641:432.111   Debug reg: CPUID
T7214 1641:432.118 - 0.356ms returns 1 (0x1)
T7214 1641:432.126 JLINK_GetDebugInfo(0x10F = JLINKARM_DEBUG_INFO_HAS_CORTEX_M_SECURITY_EXT_INDEX)
T7214 1641:432.132   Value=0x00000000
T7214 1641:432.139 - 0.015ms returns 0
T7214 1641:432.146 JLINK_HasError()
T7214 1641:432.156 JLINK_SetResetType(JLINKARM_CM3_RESET_TYPE_NORMAL)
T7214 1641:432.162 - 0.008ms returns JLINKARM_CM3_RESET_TYPE_NORMAL
T7214 1641:432.169 JLINK_Reset()
T7214 1641:432.178   CPU is running
T7214 1641:432.186   CPU_WriteMem(4 bytes @ 0xE000EDF0)
T7214 1641:432.445   CPU is running
T7214 1641:432.456   CPU_WriteMem(4 bytes @ 0xE000EDFC)
T7214 1641:434.807   Reset: Halt core after reset via DEMCR.VC_CORERESET.
T7214 1641:437.077   Reset: Reset device via AIRCR.SYSRESETREQ.
T7214 1641:437.094   CPU is running
T7214 1641:437.104   CPU_WriteMem(4 bytes @ 0xE000ED0C)
T7214 1641:489.693   CPU_ReadMem(4 bytes @ 0xE000EDF0)
T7214 1641:489.961   CPU_ReadMem(4 bytes @ 0xE000EDF0)
T7214 1641:490.219   CPU is running
T7214 1641:490.231   CPU_WriteMem(4 bytes @ 0xE000EDF0)
T7214 1641:490.484   CPU is running
T7214 1641:490.495   CPU_WriteMem(4 bytes @ 0xE000EDFC)
T7214 1641:496.322   CPU_ReadMem(4 bytes @ 0xE000EDF0)
T7214 1641:498.338   CPU_WriteMem(4 bytes @ 0xE0002000)
T7214 1641:498.741   CPU_ReadMem(4 bytes @ 0xE000EDFC)
T7214 1641:498.990   CPU_ReadMem(4 bytes @ 0xE0001000)
T7214 1641:499.231   CPU_WriteMem(4 bytes @ 0xE0001000)
T7214 1641:499.476 - 67.313ms
T7214 1641:499.529 JLINK_Halt()
T7214 1641:499.537 - 0.010ms returns 0x00
T7214 1641:499.544 JLINK_ReadMemU32(0xE000EDF0, 0x1 Items)
T7214 1641:499.555   CPU_ReadMem(4 bytes @ 0xE000EDF0)
T7214 1641:499.799   Data:  03 00 03 00
T7214 1641:499.809   Debug reg: DHCSR
T7214 1641:499.816 - 0.274ms returns 1 (0x1)
T7214 1641:499.825 JLINK_WriteU32_64(0xE000EDF0, 0xA05F0003)
T7214 1641:499.831   Debug reg: DHCSR
T7214 1641:500.048   CPU_WriteMem(4 bytes @ 0xE000EDF0)
T7214 1641:500.333 - 0.516ms returns 0 (0x00000000)
T7214 1641:500.348 JLINK_WriteU32_64(0xE000EDFC, 0x01000000)
T7214 1641:500.354   Debug reg: DEMCR
T7214 1641:500.367   CPU_WriteMem(4 bytes @ 0xE000EDFC)
T7214 1641:500.702 - 0.359ms returns 0 (0x00000000)
T7214 1641:507.904 JLINK_GetHWStatus(...)
T7214 1641:508.072 - 0.176ms returns 0
T7214 1641:513.536 JLINK_GetNumBPUnits(Type = 0xFFFFFF00)
T7214 1641:513.553 - 0.020ms returns 0x04
T7214 1641:513.560 JLINK_GetNumBPUnits(Type = 0xF0)
T7214 1641:513.565 - 0.007ms returns 0x2000
T7214 1641:513.572 JLINK_GetNumWPUnits()
T7214 1641:513.578 - 0.007ms returns 2
T7214 1641:519.130 JLINK_GetSpeed()
T7214 1641:519.147 - 0.019ms returns 4000
T7214 1641:522.432 JLINK_ReadMemU32(0xE000E004, 0x1 Items)
T7214 1641:522.458   CPU_ReadMem(4 bytes @ 0xE000E004)
T7214 1641:522.703   Data:  00 00 00 00
T7214 1641:522.714 - 0.284ms returns 1 (0x1)
T7214 1641:522.725 JLINK_Halt()
T7214 1641:522.730 - 0.008ms returns 0x00
T7214 1641:522.740 JLINK_IsHalted()
T7214 1641:522.746 - 0.008ms returns TRUE
T7214 1641:527.015 JLINK_WriteMem(0x20000000, 0x1D0 Bytes, ...)
T7214 1641:527.029   Data:  00 BE 0A E0 0D 78 2D 06 68 40 08 24 40 00 00 D3 ...
T7214 1641:527.238   CPU_WriteMem(464 bytes @ 0x20000000)
T7214 1641:529.058 - 2.051ms returns 0x1D0
T7214 1641:529.092 JLINK_HasError()
T7214 1641:529.103 JLINK_WriteReg(R0, 0x08000000)
T7214 1641:529.111 - 0.010ms returns 0
T7214 1641:529.118 JLINK_WriteReg(R1, 0x00B71B00)
T7214 1641:529.124 - 0.008ms returns 0
T7214 1641:529.130 JLINK_WriteReg(R2, 0x00000001)
T7214 1641:529.136 - 0.008ms returns 0
T7214 1641:529.142 JLINK_WriteReg(R3, 0x00000000)
T7214 1641:529.147 - 0.008ms returns 0
T7214 1641:529.153 JLINK_WriteReg(R4, 0x00000000)
T7214 1641:529.159 - 0.007ms returns 0
T7214 1641:529.165 JLINK_WriteReg(R5, 0x00000000)
T7214 1641:529.170 - 0.008ms returns 0
T7214 1641:529.176 JLINK_WriteReg(R6, 0x00000000)
T7214 1641:529.182 - 0.008ms returns 0
T7214 1641:529.188 JLINK_WriteReg(R7, 0x00000000)
T7214 1641:529.193 - 0.008ms returns 0
T7214 1641:529.200 JLINK_WriteReg(R8, 0x00000000)
T7214 1641:529.205 - 0.007ms returns 0
T7214 1641:529.211 JLINK_WriteReg(R9, 0x200001C8)
T7214 1641:529.217 - 0.008ms returns 0
T7214 1641:529.223 JLINK_WriteReg(R10, 0x00000000)
T7214 1641:529.228 - 0.008ms returns 0
T7214 1641:529.234 JLINK_WriteReg(R11, 0x00000000)
T7214 1641:529.240 - 0.008ms returns 0
T7214 1641:529.246 JLINK_WriteReg(R12, 0x00000000)
T7214 1641:529.251 - 0.007ms returns 0
T7214 1641:529.258 JLINK_WriteReg(R13 (SP), 0x20000800)
T7214 1641:529.264 - 0.009ms returns 0
T7214 1641:529.270 JLINK_WriteReg(R14, 0x20000001)
T7214 1641:529.276 - 0.008ms returns 0
T7214 1641:529.282 JLINK_WriteReg(R15 (PC), 0x20000022)
T7214 1641:529.287 - 0.008ms returns 0
T7214 1641:529.293 JLINK_WriteReg(XPSR, 0x01000000)
T7214 1641:529.299 - 0.008ms returns 0
T7214 1641:529.305 JLINK_WriteReg(MSP, 0x20000800)
T7214 1641:529.311 - 0.008ms returns 0
T7214 1641:529.317 JLINK_WriteReg(PSP, 0x20000800)
T7214 1641:529.322 - 0.008ms returns 0
T7214 1641:529.328 JLINK_WriteReg(CFBP, 0x00000000)
T7214 1641:529.334 - 0.008ms returns 0
T7214 1641:529.341 JLINK_SetBPEx(Addr = 0x20000000, Type = 0xFFFFFFF2)
T7214 1641:529.350   CPU_ReadMem(2 bytes @ 0x20000000)
T7214 1641:529.578 - 0.242ms returns 0x00000001
T7214 1641:529.590 JLINK_Go()
T7214 1641:529.601   CPU_WriteMem(2 bytes @ 0x20000000)
T7214 1641:529.957   CPU_ReadMem(4 bytes @ 0xE0001000)
T7214 1641:530.194   CPU_WriteMem(4 bytes @ 0xE0001000)
T7214 1641:530.206   CPU_WriteMem(4 bytes @ 0xE0002008)
T7214 1641:530.213   CPU_WriteMem(4 bytes @ 0xE000200C)
T7214 1641:530.221   CPU_WriteMem(4 bytes @ 0xE0002010)
T7214 1641:530.228   CPU_WriteMem(4 bytes @ 0xE0002014)
T7214 1641:531.107   CPU_WriteMem(4 bytes @ 0xE0001004)
T7214 1641:533.175 - 3.595ms
T7214 1641:533.192 JLINK_IsHalted()
T7214 1641:535.076   CPU_ReadMem(2 bytes @ 0x20000000)
T7214 1641:535.328 - 2.140ms returns TRUE
T7214 1641:535.341 JLINK_ReadReg(R15 (PC))
T7214 1641:535.349 - 0.010ms returns 0x20000000
T7214 1641:535.357 JLINK_ClrBPEx(BPHandle = 0x00000001)
T7214 1641:535.363 - 0.008ms returns 0x00
T7214 1641:535.369 JLINK_ReadReg(R0)
T7214 1641:535.375 - 0.008ms returns 0x00000000
T7214 1641:535.672 JLINK_HasError()
T7214 1641:535.683 JLINK_WriteReg(R0, 0x08000000)
T7214 1641:535.690 - 0.009ms returns 0
T7214 1641:535.696 JLINK_WriteReg(R1, 0x00B71B00)
T7214 1641:535.702 - 0.008ms returns 0
T7214 1641:535.708 JLINK_WriteReg(R2, 0x00000001)
T7214 1641:535.714 - 0.008ms returns 0
T7214 1641:535.720 JLINK_WriteReg(R3, 0x00000000)
T7214 1641:535.725 - 0.008ms returns 0
T7214 1641:535.731 JLINK_WriteReg(R4, 0x00000000)
T7214 1641:535.737 - 0.007ms returns 0
T7214 1641:535.743 JLINK_WriteReg(R5, 0x00000000)
T7214 1641:535.748 - 0.008ms returns 0
T7214 1641:535.754 JLINK_WriteReg(R6, 0x00000000)
T7214 1641:535.760 - 0.008ms returns 0
T7214 1641:535.766 JLINK_WriteReg(R7, 0x00000000)
T7214 1641:535.771 - 0.007ms returns 0
T7214 1641:535.777 JLINK_WriteReg(R8, 0x00000000)
T7214 1641:535.783 - 0.008ms returns 0
T7214 1641:535.789 JLINK_WriteReg(R9, 0x200001C8)
T7214 1641:535.795 - 0.008ms returns 0
T7214 1641:535.801 JLINK_WriteReg(R10, 0x00000000)
T7214 1641:535.806 - 0.008ms returns 0
T7214 1641:535.812 JLINK_WriteReg(R11, 0x00000000)
T7214 1641:535.817 - 0.008ms returns 0
T7214 1641:535.824 JLINK_WriteReg(R12, 0x00000000)
T7214 1641:535.829 - 0.007ms returns 0
T7214 1641:535.835 JLINK_WriteReg(R13 (SP), 0x20000800)
T7214 1641:535.841 - 0.008ms returns 0
T7214 1641:535.847 JLINK_WriteReg(R14, 0x20000001)
T7214 1641:535.853 - 0.008ms returns 0
T7214 1641:535.859 JLINK_WriteReg(R15 (PC), 0x20000060)
T7214 1641:535.864 - 0.007ms returns 0
T7214 1641:535.870 JLINK_WriteReg(XPSR, 0x01000000)
T7214 1641:535.876 - 0.008ms returns 0
T7214 1641:535.882 JLINK_WriteReg(MSP, 0x20000800)
T7214 1641:535.887 - 0.008ms returns 0
T7214 1641:535.893 JLINK_WriteReg(PSP, 0x20000800)
T7214 1641:535.899 - 0.008ms returns 0
T7214 1641:535.905 JLINK_WriteReg(CFBP, 0x00000000)
T7214 1641:535.912 - 0.009ms returns 0
T7214 1641:535.918 JLINK_SetBPEx(Addr = 0x20000000, Type = 0xFFFFFFF2)
T7214 1641:535.927 - 0.011ms returns 0x00000002
T7214 1641:535.941 JLINK_Go()
T7214 1641:535.955   CPU_ReadMem(4 bytes @ 0xE0001000)
T7214 1641:536.211   CPU_WriteMem(4 bytes @ 0xE0001000)
T7214 1641:538.178 - 2.244ms
T7214 1641:538.191 JLINK_IsHalted()
T7214 1641:541.791 - 3.639ms returns FALSE
T7214 1641:541.861 JLINK_HasError()
T7214 1641:560.794 JLINK_IsHalted()
T7214 1641:562.577   CPU_ReadMem(2 bytes @ 0x20000000)
T7214 1641:562.837 - 2.052ms returns TRUE
T7214 1641:562.853 JLINK_ReadReg(R15 (PC))
T7214 1641:562.861 - 0.011ms returns 0x20000000
T7214 1641:562.868 JLINK_ClrBPEx(BPHandle = 0x00000002)
T7214 1641:562.874 - 0.008ms returns 0x00
T7214 1641:562.881 JLINK_ReadReg(R0)
T7214 1641:562.887 - 0.008ms returns 0x00000000
T7214 1641:615.093 JLINK_HasError()
T7214 1641:615.117 JLINK_WriteReg(R0, 0x00000001)
T7214 1641:615.128 - 0.013ms returns 0
T7214 1641:615.135 JLINK_WriteReg(R1, 0x00B71B00)
T7214 1641:615.140 - 0.008ms returns 0
T7214 1641:615.147 JLINK_WriteReg(R2, 0x00000001)
T7214 1641:615.152 - 0.007ms returns 0
T7214 1641:615.158 JLINK_WriteReg(R3, 0x00000000)
T7214 1641:615.163 - 0.007ms returns 0
T7214 1641:615.169 JLINK_WriteReg(R4, 0x00000000)
T7214 1641:615.175 - 0.007ms returns 0
T7214 1641:615.225 JLINK_WriteReg(R5, 0x00000000)
T7214 1641:615.234 - 0.012ms returns 0
T7214 1641:615.241 JLINK_WriteReg(R6, 0x00000000)
T7214 1641:615.246 - 0.007ms returns 0
T7214 1641:615.252 JLINK_WriteReg(R7, 0x00000000)
T7214 1641:615.257 - 0.008ms returns 0
T7214 1641:615.263 JLINK_WriteReg(R8, 0x00000000)
T7214 1641:615.269 - 0.008ms returns 0
T7214 1641:615.275 JLINK_WriteReg(R9, 0x200001C8)
T7214 1641:615.280 - 0.007ms returns 0
T7214 1641:615.286 JLINK_WriteReg(R10, 0x00000000)
T7214 1641:615.291 - 0.008ms returns 0
T7214 1641:615.297 JLINK_WriteReg(R11, 0x00000000)
T7214 1641:615.303 - 0.008ms returns 0
T7214 1641:615.309 JLINK_WriteReg(R12, 0x00000000)
T7214 1641:615.314 - 0.007ms returns 0
T7214 1641:615.320 JLINK_WriteReg(R13 (SP), 0x20000800)
T7214 1641:615.326 - 0.008ms returns 0
T7214 1641:615.332 JLINK_WriteReg(R14, 0x20000001)
T7214 1641:615.338 - 0.007ms returns 0
T7214 1641:615.344 JLINK_WriteReg(R15 (PC), 0x20000052)
T7214 1641:615.349 - 0.008ms returns 0
T7214 1641:615.355 JLINK_WriteReg(XPSR, 0x01000000)
T7214 1641:615.361 - 0.008ms returns 0
T7214 1641:615.367 JLINK_WriteReg(MSP, 0x20000800)
T7214 1641:615.372 - 0.007ms returns 0
T7214 1641:615.378 JLINK_WriteReg(PSP, 0x20000800)
T7214 1641:615.383 - 0.008ms returns 0
T7214 1641:615.390 JLINK_WriteReg(CFBP, 0x00000000)
T7214 1641:615.395 - 0.007ms returns 0
T7214 1641:615.401 JLINK_SetBPEx(Addr = 0x20000000, Type = 0xFFFFFFF2)
T7214 1641:615.409 - 0.010ms returns 0x00000003
T7214 1641:615.415 JLINK_Go()
T7214 1641:615.429   CPU_ReadMem(4 bytes @ 0xE0001000)
T7214 1641:615.741   CPU_WriteMem(4 bytes @ 0xE0001000)
T7214 1641:617.765 - 2.359ms
T7214 1641:617.780 JLINK_IsHalted()
T7214 1641:619.504   CPU_ReadMem(2 bytes @ 0x20000000)
T7214 1641:619.749 - 1.975ms returns TRUE
T7214 1641:619.762 JLINK_ReadReg(R15 (PC))
T7214 1641:619.770 - 0.010ms returns 0x20000000
T7214 1641:619.777 JLINK_ClrBPEx(BPHandle = 0x00000003)
T7214 1641:619.782 - 0.008ms returns 0x00
T7214 1641:619.789 JLINK_ReadReg(R0)
T7214 1641:619.794 - 0.008ms returns 0x00000000
T7214 1641:624.777 JLINK_WriteMem(0x20000000, 0x1D0 Bytes, ...)
T7214 1641:624.791   Data:  00 BE 0A E0 0D 78 2D 06 68 40 08 24 40 00 00 D3 ...
T7214 1641:624.810   CPU_WriteMem(464 bytes @ 0x20000000)
T7214 1641:626.714 - 1.947ms returns 0x1D0
T7214 1641:626.753 JLINK_HasError()
T7214 1641:626.761 JLINK_WriteReg(R0, 0x08000000)
T7214 1641:626.770 - 0.011ms returns 0
T7214 1641:626.777 JLINK_WriteReg(R1, 0x00B71B00)
T7214 1641:626.782 - 0.008ms returns 0
T7214 1641:626.789 JLINK_WriteReg(R2, 0x00000002)
T7214 1641:626.794 - 0.008ms returns 0
T7214 1641:626.800 JLINK_WriteReg(R3, 0x00000000)
T7214 1641:626.806 - 0.008ms returns 0
T7214 1641:626.812 JLINK_WriteReg(R4, 0x00000000)
T7214 1641:626.817 - 0.008ms returns 0
T7214 1641:626.823 JLINK_WriteReg(R5, 0x00000000)
T7214 1641:626.829 - 0.007ms returns 0
T7214 1641:626.835 JLINK_WriteReg(R6, 0x00000000)
T7214 1641:626.840 - 0.008ms returns 0
T7214 1641:626.846 JLINK_WriteReg(R7, 0x00000000)
T7214 1641:626.852 - 0.008ms returns 0
T7214 1641:626.858 JLINK_WriteReg(R8, 0x00000000)
T7214 1641:626.863 - 0.008ms returns 0
T7214 1641:626.870 JLINK_WriteReg(R9, 0x200001C8)
T7214 1641:626.875 - 0.007ms returns 0
T7214 1641:626.881 JLINK_WriteReg(R10, 0x00000000)
T7214 1641:626.886 - 0.007ms returns 0
T7214 1641:626.892 JLINK_WriteReg(R11, 0x00000000)
T7214 1641:626.898 - 0.008ms returns 0
T7214 1641:626.904 JLINK_WriteReg(R12, 0x00000000)
T7214 1641:626.909 - 0.008ms returns 0
T7214 1641:626.916 JLINK_WriteReg(R13 (SP), 0x20000800)
T7214 1641:626.921 - 0.008ms returns 0
T7214 1641:626.928 JLINK_WriteReg(R14, 0x20000001)
T7214 1641:626.933 - 0.008ms returns 0
T7214 1641:626.939 JLINK_WriteReg(R15 (PC), 0x20000022)
T7214 1641:626.945 - 0.008ms returns 0
T7214 1641:626.951 JLINK_WriteReg(XPSR, 0x01000000)
T7214 1641:626.957 - 0.008ms returns 0
T7214 1641:626.963 JLINK_WriteReg(MSP, 0x20000800)
T7214 1641:626.968 - 0.007ms returns 0
T7214 1641:626.975 JLINK_WriteReg(PSP, 0x20000800)
T7214 1641:626.984 - 0.014ms returns 0
T7214 1641:626.993 JLINK_WriteReg(CFBP, 0x00000000)
T7214 1641:626.999 - 0.008ms returns 0
T7214 1641:627.006 JLINK_SetBPEx(Addr = 0x20000000, Type = 0xFFFFFFF2)
T7214 1641:627.015   CPU_ReadMem(2 bytes @ 0x20000000)
T7214 1641:627.331 - 0.331ms returns 0x00000004
T7214 1641:627.343 JLINK_Go()
T7214 1641:627.351   CPU_WriteMem(2 bytes @ 0x20000000)
T7214 1641:627.736   CPU_ReadMem(4 bytes @ 0xE0001000)
T7214 1641:627.987   CPU_WriteMem(4 bytes @ 0xE0001000)
T7214 1641:630.028 - 2.692ms
T7214 1641:630.044 JLINK_IsHalted()
T7214 1641:631.826   CPU_ReadMem(2 bytes @ 0x20000000)
T7214 1641:632.080 - 2.040ms returns TRUE
T7214 1641:632.094 JLINK_ReadReg(R15 (PC))
T7214 1641:632.102 - 0.010ms returns 0x20000000
T7214 1641:632.111 JLINK_ClrBPEx(BPHandle = 0x00000004)
T7214 1641:632.117 - 0.008ms returns 0x00
T7214 1641:632.125 JLINK_ReadReg(R0)
T7214 1641:632.131 - 0.008ms returns 0x00000000
T7214 1641:632.413 JLINK_WriteMem(0x200001D0, 0x80 Bytes, ...)
T7214 1641:632.422   Data:  10 04 00 20 D5 00 00 08 ED 04 00 08 E9 04 00 08 ...
T7214 1641:632.438   CPU_WriteMem(128 bytes @ 0x200001D0)
T7214 1641:633.286 - 0.910ms returns 0x80
T7214 1641:633.355 JLINK_HasError()
T7214 1641:633.395 JLINK_WriteReg(R0, 0x08000000)
T7214 1641:633.403 - 0.010ms returns 0
T7214 1641:633.410 JLINK_WriteReg(R1, 0x00000080)
T7214 1641:633.415 - 0.008ms returns 0
T7214 1641:633.421 JLINK_WriteReg(R2, 0x200001D0)
T7214 1641:633.427 - 0.008ms returns 0
T7214 1641:633.433 JLINK_WriteReg(R3, 0x00000000)
T7214 1641:633.438 - 0.008ms returns 0
T7214 1641:633.444 JLINK_WriteReg(R4, 0x00000000)
T7214 1641:633.450 - 0.008ms returns 0
T7214 1641:633.456 JLINK_WriteReg(R5, 0x00000000)
T7214 1641:633.461 - 0.007ms returns 0
T7214 1641:633.468 JLINK_WriteReg(R6, 0x00000000)
T7214 1641:633.473 - 0.008ms returns 0
T7214 1641:633.479 JLINK_WriteReg(R7, 0x00000000)
T7214 1641:633.485 - 0.008ms returns 0
T7214 1641:633.491 JLINK_WriteReg(R8, 0x00000000)
T7214 1641:633.496 - 0.008ms returns 0
T7214 1641:633.502 JLINK_WriteReg(R9, 0x200001C8)
T7214 1641:633.508 - 0.007ms returns 0
T7214 1641:633.514 JLINK_WriteReg(R10, 0x00000000)
T7214 1641:633.519 - 0.008ms returns 0
T7214 1641:633.525 JLINK_WriteReg(R11, 0x00000000)
T7214 1641:633.531 - 0.008ms returns 0
T7214 1641:633.537 JLINK_WriteReg(R12, 0x00000000)
T7214 1641:633.542 - 0.009ms returns 0
T7214 1641:633.550 JLINK_WriteReg(R13 (SP), 0x20000800)
T7214 1641:633.557 - 0.010ms returns 0
T7214 1641:633.565 JLINK_WriteReg(R14, 0x20000001)
T7214 1641:633.573 - 0.011ms returns 0
T7214 1641:633.581 JLINK_WriteReg(R15 (PC), 0x200000FA)
T7214 1641:633.589 - 0.012ms returns 0
T7214 1641:633.597 JLINK_WriteReg(XPSR, 0x01000000)
T7214 1641:633.603 - 0.008ms returns 0
T7214 1641:633.609 JLINK_WriteReg(MSP, 0x20000800)
T7214 1641:633.614 - 0.007ms returns 0
T7214 1641:633.620 JLINK_WriteReg(PSP, 0x20000800)
T7214 1641:633.626 - 0.007ms returns 0
T7214 1641:633.632 JLINK_WriteReg(CFBP, 0x00000000)
T7214 1641:633.637 - 0.008ms returns 0
T7214 1641:633.644 JLINK_SetBPEx(Addr = 0x20000000, Type = 0xFFFFFFF2)
T7214 1641:633.651 - 0.009ms returns 0x00000005
T7214 1641:633.657 JLINK_Go()
T7214 1641:633.667   CPU_ReadMem(4 bytes @ 0xE0001000)
T7214 1641:633.918   CPU_WriteMem(4 bytes @ 0xE0001000)
T7214 1641:635.900 - 2.251ms
T7214 1641:635.914 JLINK_IsHalted()
T7214 1641:637.332 - 1.424ms returns FALSE
T7214 1641:637.344 JLINK_HasError()
T7214 1641:643.602 JLINK_IsHalted()
T7214 1641:645.457   CPU_ReadMem(2 bytes @ 0x20000000)
T7214 1641:645.825 - 2.228ms returns TRUE
T7214 1641:645.837 JLINK_ReadReg(R15 (PC))
T7214 1641:645.845 - 0.010ms returns 0x20000000
T7214 1641:645.855 JLINK_ClrBPEx(BPHandle = 0x00000005)
T7214 1641:645.861 - 0.008ms returns 0x00
T7214 1641:645.867 JLINK_ReadReg(R0)
T7214 1641:645.873 - 0.008ms returns 0x00000000
T7214 1641:646.301 JLINK_WriteMem(0x200001D0, 0x80 Bytes, ...)
T7214 1641:646.311   Data:  00 00 00 00 E7 00 00 08 00 00 00 00 E7 00 00 08 ...
T7214 1641:646.325   CPU_WriteMem(128 bytes @ 0x200001D0)
T7214 1641:647.241 - 0.972ms returns 0x80
T7214 1641:647.313 JLINK_HasError()
T7214 1641:647.320 JLINK_WriteReg(R0, 0x08000080)
T7214 1641:647.327 - 0.009ms returns 0
T7214 1641:647.334 JLINK_WriteReg(R1, 0x00000080)
T7214 1641:647.340 - 0.008ms returns 0
T7214 1641:647.346 JLINK_WriteReg(R2, 0x200001D0)
T7214 1641:647.351 - 0.008ms returns 0
T7214 1641:647.358 JLINK_WriteReg(R3, 0x00000000)
T7214 1641:647.363 - 0.007ms returns 0
T7214 1641:647.369 JLINK_WriteReg(R4, 0x00000000)
T7214 1641:647.374 - 0.008ms returns 0
T7214 1641:647.380 JLINK_WriteReg(R5, 0x00000000)
T7214 1641:647.386 - 0.008ms returns 0
T7214 1641:647.392 JLINK_WriteReg(R6, 0x00000000)
T7214 1641:647.398 - 0.008ms returns 0
T7214 1641:647.404 JLINK_WriteReg(R7, 0x00000000)
T7214 1641:647.409 - 0.007ms returns 0
T7214 1641:647.415 JLINK_WriteReg(R8, 0x00000000)
T7214 1641:647.421 - 0.008ms returns 0
T7214 1641:647.427 JLINK_WriteReg(R9, 0x200001C8)
T7214 1641:647.432 - 0.008ms returns 0
T7214 1641:647.439 JLINK_WriteReg(R10, 0x00000000)
T7214 1641:647.444 - 0.008ms returns 0
T7214 1641:647.450 JLINK_WriteReg(R11, 0x00000000)
T7214 1641:647.456 - 0.007ms returns 0
T7214 1641:647.462 JLINK_WriteReg(R12, 0x00000000)
T7214 1641:647.467 - 0.007ms returns 0
T7214 1641:647.473 JLINK_WriteReg(R13 (SP), 0x20000800)
T7214 1641:647.479 - 0.008ms returns 0
T7214 1641:647.485 JLINK_WriteReg(R14, 0x20000001)
T7214 1641:647.491 - 0.008ms returns 0
T7214 1641:647.497 JLINK_WriteReg(R15 (PC), 0x200000FA)
T7214 1641:647.503 - 0.008ms returns 0
T7214 1641:647.509 JLINK_WriteReg(XPSR, 0x01000000)
T7214 1641:647.514 - 0.008ms returns 0
T7214 1641:647.521 JLINK_WriteReg(MSP, 0x20000800)
T7214 1641:647.526 - 0.008ms returns 0
T7214 1641:647.532 JLINK_WriteReg(PSP, 0x20000800)
T7214 1641:647.538 - 0.008ms returns 0
T7214 1641:647.545 JLINK_WriteReg(CFBP, 0x00000000)
T7214 1641:647.551 - 0.008ms returns 0
T7214 1641:647.558 JLINK_SetBPEx(Addr = 0x20000000, Type = 0xFFFFFFF2)
T7214 1641:647.566 - 0.011ms returns 0x00000006
T7214 1641:647.574 JLINK_Go()
T7214 1641:647.587   CPU_ReadMem(4 bytes @ 0xE0001000)
T7214 1641:647.834   CPU_WriteMem(4 bytes @ 0xE0001000)
T7214 1641:649.961 - 2.401ms
T7214 1641:649.985 JLINK_IsHalted()
T7214 1641:651.061 - 1.108ms returns FALSE
T7214 1641:651.123 JLINK_HasError()
T7214 1641:655.599 JLINK_IsHalted()
T7214 1641:657.512   CPU_ReadMem(2 bytes @ 0x20000000)
T7214 1641:657.780 - 2.186ms returns TRUE
T7214 1641:657.796 JLINK_ReadReg(R15 (PC))
T7214 1641:657.804 - 0.011ms returns 0x20000000
T7214 1641:657.813 JLINK_ClrBPEx(BPHandle = 0x00000006)
T7214 1641:657.819 - 0.008ms returns 0x00
T7214 1641:657.828 JLINK_ReadReg(R0)
T7214 1641:657.833 - 0.008ms returns 0x00000000
T7214 1641:658.260 JLINK_WriteMem(0x200001D0, 0x80 Bytes, ...)
T7214 1641:658.269   Data:  D5 40 9D 42 05 D3 1D 46 95 40 49 1B 25 46 95 40 ...
T7214 1641:658.283   CPU_WriteMem(128 bytes @ 0x200001D0)
T7214 1641:659.154 - 0.926ms returns 0x80
T7214 1641:659.216 JLINK_HasError()
T7214 1641:659.240 JLINK_WriteReg(R0, 0x08000100)
T7214 1641:659.247 - 0.010ms returns 0
T7214 1641:659.254 JLINK_WriteReg(R1, 0x00000080)
T7214 1641:659.259 - 0.008ms returns 0
T7214 1641:659.266 JLINK_WriteReg(R2, 0x200001D0)
T7214 1641:659.271 - 0.008ms returns 0
T7214 1641:659.277 JLINK_WriteReg(R3, 0x00000000)
T7214 1641:659.283 - 0.007ms returns 0
T7214 1641:659.289 JLINK_WriteReg(R4, 0x00000000)
T7214 1641:659.294 - 0.008ms returns 0
T7214 1641:659.300 JLINK_WriteReg(R5, 0x00000000)
T7214 1641:659.306 - 0.008ms returns 0
T7214 1641:659.312 JLINK_WriteReg(R6, 0x00000000)
T7214 1641:659.317 - 0.008ms returns 0
T7214 1641:659.324 JLINK_WriteReg(R7, 0x00000000)
T7214 1641:659.329 - 0.007ms returns 0
T7214 1641:659.335 JLINK_WriteReg(R8, 0x00000000)
T7214 1641:659.340 - 0.008ms returns 0
T7214 1641:659.347 JLINK_WriteReg(R9, 0x200001C8)
T7214 1641:659.352 - 0.008ms returns 0
T7214 1641:659.358 JLINK_WriteReg(R10, 0x00000000)
T7214 1641:659.364 - 0.008ms returns 0
T7214 1641:659.370 JLINK_WriteReg(R11, 0x00000000)
T7214 1641:659.379 - 0.014ms returns 0
T7214 1641:659.388 JLINK_WriteReg(R12, 0x00000000)
T7214 1641:659.393 - 0.008ms returns 0
T7214 1641:659.399 JLINK_WriteReg(R13 (SP), 0x20000800)
T7214 1641:659.406 - 0.008ms returns 0
T7214 1641:659.412 JLINK_WriteReg(R14, 0x20000001)
T7214 1641:659.417 - 0.008ms returns 0
T7214 1641:659.423 JLINK_WriteReg(R15 (PC), 0x200000FA)
T7214 1641:659.429 - 0.007ms returns 0
T7214 1641:659.435 JLINK_WriteReg(XPSR, 0x01000000)
T7214 1641:659.441 - 0.008ms returns 0
T7214 1641:659.447 JLINK_WriteReg(MSP, 0x20000800)
T7214 1641:659.452 - 0.008ms returns 0
T7214 1641:659.458 JLINK_WriteReg(PSP, 0x20000800)
T7214 1641:659.464 - 0.008ms returns 0
T7214 1641:659.470 JLINK_WriteReg(CFBP, 0x00000000)
T7214 1641:659.475 - 0.007ms returns 0
T7214 1641:659.482 JLINK_SetBPEx(Addr = 0x20000000, Type = 0xFFFFFFF2)
T7214 1641:659.488 - 0.009ms returns 0x00000007
T7214 1641:659.495 JLINK_Go()
T7214 1641:659.505   CPU_ReadMem(4 bytes @ 0xE0001000)
T7214 1641:659.758   CPU_WriteMem(4 bytes @ 0xE0001000)
T7214 1641:661.913 - 2.427ms
T7214 1641:661.928 JLINK_IsHalted()
T7214 1641:662.954 - 1.033ms returns FALSE
T7214 1641:662.966 JLINK_HasError()
T7214 1641:669.601 JLINK_IsHalted()
T7214 1641:671.552   CPU_ReadMem(2 bytes @ 0x20000000)
T7214 1641:671.950 - 2.356ms returns TRUE
T7214 1641:671.962 JLINK_ReadReg(R15 (PC))
T7214 1641:671.970 - 0.010ms returns 0x20000000
T7214 1641:671.977 JLINK_ClrBPEx(BPHandle = 0x00000007)
T7214 1641:671.983 - 0.008ms returns 0x00
T7214 1641:671.989 JLINK_ReadReg(R0)
T7214 1641:671.995 - 0.008ms returns 0x00000000
T7214 1641:672.437 JLINK_WriteMem(0x200001D0, 0x80 Bytes, ...)
T7214 1641:672.447   Data:  40 6B C0 07 C0 0F 01 90 00 BF 00 BF 02 20 02 90 ...
T7214 1641:672.462   CPU_WriteMem(128 bytes @ 0x200001D0)
T7214 1641:673.307 - 0.898ms returns 0x80
T7214 1641:673.365 JLINK_HasError()
T7214 1641:673.414 JLINK_WriteReg(R0, 0x08000180)
T7214 1641:673.421 - 0.009ms returns 0
T7214 1641:673.428 JLINK_WriteReg(R1, 0x00000080)
T7214 1641:673.433 - 0.008ms returns 0
T7214 1641:673.439 JLINK_WriteReg(R2, 0x200001D0)
T7214 1641:673.445 - 0.008ms returns 0
T7214 1641:673.451 JLINK_WriteReg(R3, 0x00000000)
T7214 1641:673.456 - 0.007ms returns 0
T7214 1641:673.463 JLINK_WriteReg(R4, 0x00000000)
T7214 1641:673.468 - 0.008ms returns 0
T7214 1641:673.474 JLINK_WriteReg(R5, 0x00000000)
T7214 1641:673.480 - 0.008ms returns 0
T7214 1641:673.486 JLINK_WriteReg(R6, 0x00000000)
T7214 1641:673.491 - 0.008ms returns 0
T7214 1641:673.498 JLINK_WriteReg(R7, 0x00000000)
T7214 1641:673.503 - 0.007ms returns 0
T7214 1641:673.509 JLINK_WriteReg(R8, 0x00000000)
T7214 1641:673.515 - 0.008ms returns 0
T7214 1641:673.521 JLINK_WriteReg(R9, 0x200001C8)
T7214 1641:673.526 - 0.008ms returns 0
T7214 1641:673.533 JLINK_WriteReg(R10, 0x00000000)
T7214 1641:673.538 - 0.008ms returns 0
T7214 1641:673.546 JLINK_WriteReg(R11, 0x00000000)
T7214 1641:673.551 - 0.008ms returns 0
T7214 1641:673.559 JLINK_WriteReg(R12, 0x00000000)
T7214 1641:673.566 - 0.010ms returns 0
T7214 1641:673.574 JLINK_WriteReg(R13 (SP), 0x20000800)
T7214 1641:673.581 - 0.009ms returns 0
T7214 1641:673.587 JLINK_WriteReg(R14, 0x20000001)
T7214 1641:673.593 - 0.008ms returns 0
T7214 1641:673.599 JLINK_WriteReg(R15 (PC), 0x200000FA)
T7214 1641:673.604 - 0.008ms returns 0
T7214 1641:673.611 JLINK_WriteReg(XPSR, 0x01000000)
T7214 1641:673.616 - 0.008ms returns 0
T7214 1641:673.622 JLINK_WriteReg(MSP, 0x20000800)
T7214 1641:673.628 - 0.008ms returns 0
T7214 1641:673.634 JLINK_WriteReg(PSP, 0x20000800)
T7214 1641:673.639 - 0.008ms returns 0
T7214 1641:673.646 JLINK_WriteReg(CFBP, 0x00000000)
T7214 1641:673.651 - 0.007ms returns 0
T7214 1641:673.657 JLINK_SetBPEx(Addr = 0x20000000, Type = 0xFFFFFFF2)
T7214 1641:673.664 - 0.008ms returns 0x00000008
T7214 1641:673.670 JLINK_Go()
T7214 1641:673.679   CPU_ReadMem(4 bytes @ 0xE0001000)
T7214 1641:673.928   CPU_WriteMem(4 bytes @ 0xE0001000)
T7214 1641:675.891 - 2.227ms
T7214 1641:675.903 JLINK_IsHalted()
T7214 1641:676.931 - 1.036ms returns FALSE
T7214 1641:676.946 JLINK_HasError()
T7214 1641:682.615 JLINK_IsHalted()
T7214 1641:684.572   CPU_ReadMem(2 bytes @ 0x20000000)
T7214 1641:684.965 - 2.360ms returns TRUE
T7214 1641:684.984 JLINK_ReadReg(R15 (PC))
T7214 1641:684.993 - 0.011ms returns 0x20000000
T7214 1641:685.002 JLINK_ClrBPEx(BPHandle = 0x00000008)
T7214 1641:685.008 - 0.009ms returns 0x00
T7214 1641:685.017 JLINK_ReadReg(R0)
T7214 1641:685.023 - 0.008ms returns 0x00000000
T7214 1641:685.471 JLINK_WriteMem(0x200001D0, 0x80 Bytes, ...)
T7214 1641:685.481   Data:  0C 68 34 40 00 2C 71 D0 4D 68 02 2D 02 D0 4D 68 ...
T7214 1641:685.495   CPU_WriteMem(128 bytes @ 0x200001D0)
T7214 1641:686.333 - 0.896ms returns 0x80
T7214 1641:686.398 JLINK_HasError()
T7214 1641:686.442 JLINK_WriteReg(R0, 0x08000200)
T7214 1641:686.450 - 0.010ms returns 0
T7214 1641:686.456 JLINK_WriteReg(R1, 0x00000080)
T7214 1641:686.462 - 0.008ms returns 0
T7214 1641:686.468 JLINK_WriteReg(R2, 0x200001D0)
T7214 1641:686.473 - 0.008ms returns 0
T7214 1641:686.480 JLINK_WriteReg(R3, 0x00000000)
T7214 1641:686.485 - 0.007ms returns 0
T7214 1641:686.491 JLINK_WriteReg(R4, 0x00000000)
T7214 1641:686.497 - 0.008ms returns 0
T7214 1641:686.503 JLINK_WriteReg(R5, 0x00000000)
T7214 1641:686.509 - 0.008ms returns 0
T7214 1641:686.515 JLINK_WriteReg(R6, 0x00000000)
T7214 1641:686.520 - 0.007ms returns 0
T7214 1641:686.526 JLINK_WriteReg(R7, 0x00000000)
T7214 1641:686.532 - 0.007ms returns 0
T7214 1641:686.538 JLINK_WriteReg(R8, 0x00000000)
T7214 1641:686.545 - 0.009ms returns 0
T7214 1641:686.551 JLINK_WriteReg(R9, 0x200001C8)
T7214 1641:686.558 - 0.010ms returns 0
T7214 1641:686.571 JLINK_WriteReg(R10, 0x00000000)
T7214 1641:686.578 - 0.009ms returns 0
T7214 1641:686.585 JLINK_WriteReg(R11, 0x00000000)
T7214 1641:686.590 - 0.007ms returns 0
T7214 1641:686.596 JLINK_WriteReg(R12, 0x00000000)
T7214 1641:686.605 - 0.011ms returns 0
T7214 1641:686.615 JLINK_WriteReg(R13 (SP), 0x20000800)
T7214 1641:686.621 - 0.008ms returns 0
T7214 1641:686.627 JLINK_WriteReg(R14, 0x20000001)
T7214 1641:686.633 - 0.008ms returns 0
T7214 1641:686.639 JLINK_WriteReg(R15 (PC), 0x200000FA)
T7214 1641:686.644 - 0.008ms returns 0
T7214 1641:686.650 JLINK_WriteReg(XPSR, 0x01000000)
T7214 1641:686.656 - 0.007ms returns 0
T7214 1641:686.662 JLINK_WriteReg(MSP, 0x20000800)
T7214 1641:686.667 - 0.007ms returns 0
T7214 1641:686.674 JLINK_WriteReg(PSP, 0x20000800)
T7214 1641:686.679 - 0.008ms returns 0
T7214 1641:686.685 JLINK_WriteReg(CFBP, 0x00000000)
T7214 1641:686.691 - 0.008ms returns 0
T7214 1641:686.697 JLINK_SetBPEx(Addr = 0x20000000, Type = 0xFFFFFFF2)
T7214 1641:686.703 - 0.009ms returns 0x00000009
T7214 1641:686.710 JLINK_Go()
T7214 1641:686.720   CPU_ReadMem(4 bytes @ 0xE0001000)
T7214 1641:686.979   CPU_WriteMem(4 bytes @ 0xE0001000)
T7214 1641:688.939 - 2.238ms
T7214 1641:688.954 JLINK_IsHalted()
T7214 1641:689.982 - 1.034ms returns FALSE
T7214 1641:689.994 JLINK_HasError()
T7214 1641:692.555 JLINK_IsHalted()
T7214 1641:694.351   CPU_ReadMem(2 bytes @ 0x20000000)
T7214 1641:694.605 - 2.056ms returns TRUE
T7214 1641:694.618 JLINK_ReadReg(R15 (PC))
T7214 1641:694.626 - 0.010ms returns 0x20000000
T7214 1641:694.632 JLINK_ClrBPEx(BPHandle = 0x00000009)
T7214 1641:694.638 - 0.008ms returns 0x00
T7214 1641:694.645 JLINK_ReadReg(R0)
T7214 1641:694.650 - 0.008ms returns 0x00000000
T7214 1641:695.100 JLINK_WriteMem(0x200001D0, 0x80 Bytes, ...)
T7214 1641:695.110   Data:  30 46 56 00 CD 68 B5 40 28 43 98 60 58 68 01 25 ...
T7214 1641:695.124   CPU_WriteMem(128 bytes @ 0x200001D0)
T7214 1641:695.921 - 0.826ms returns 0x80
T7214 1641:695.933 JLINK_HasError()
T7214 1641:695.940 JLINK_WriteReg(R0, 0x08000280)
T7214 1641:695.947 - 0.009ms returns 0
T7214 1641:695.953 JLINK_WriteReg(R1, 0x00000080)
T7214 1641:695.959 - 0.008ms returns 0
T7214 1641:695.965 JLINK_WriteReg(R2, 0x200001D0)
T7214 1641:695.970 - 0.008ms returns 0
T7214 1641:695.977 JLINK_WriteReg(R3, 0x00000000)
T7214 1641:695.982 - 0.008ms returns 0
T7214 1641:695.991 JLINK_WriteReg(R4, 0x00000000)
T7214 1641:695.999 - 0.010ms returns 0
T7214 1641:696.005 JLINK_WriteReg(R5, 0x00000000)
T7214 1641:696.011 - 0.008ms returns 0
T7214 1641:696.017 JLINK_WriteReg(R6, 0x00000000)
T7214 1641:696.022 - 0.008ms returns 0
T7214 1641:696.029 JLINK_WriteReg(R7, 0x00000000)
T7214 1641:696.034 - 0.008ms returns 0
T7214 1641:696.040 JLINK_WriteReg(R8, 0x00000000)
T7214 1641:696.046 - 0.007ms returns 0
T7214 1641:696.052 JLINK_WriteReg(R9, 0x200001C8)
T7214 1641:696.057 - 0.008ms returns 0
T7214 1641:696.063 JLINK_WriteReg(R10, 0x00000000)
T7214 1641:696.069 - 0.008ms returns 0
T7214 1641:696.075 JLINK_WriteReg(R11, 0x00000000)
T7214 1641:696.080 - 0.008ms returns 0
T7214 1641:696.087 JLINK_WriteReg(R12, 0x00000000)
T7214 1641:696.092 - 0.007ms returns 0
T7214 1641:696.098 JLINK_WriteReg(R13 (SP), 0x20000800)
T7214 1641:696.104 - 0.008ms returns 0
T7214 1641:696.110 JLINK_WriteReg(R14, 0x20000001)
T7214 1641:696.116 - 0.008ms returns 0
T7214 1641:696.122 JLINK_WriteReg(R15 (PC), 0x200000FA)
T7214 1641:696.128 - 0.008ms returns 0
T7214 1641:696.134 JLINK_WriteReg(XPSR, 0x01000000)
T7214 1641:696.139 - 0.007ms returns 0
T7214 1641:696.146 JLINK_WriteReg(MSP, 0x20000800)
T7214 1641:696.151 - 0.008ms returns 0
T7214 1641:696.157 JLINK_WriteReg(PSP, 0x20000800)
T7214 1641:696.163 - 0.007ms returns 0
T7214 1641:696.169 JLINK_WriteReg(CFBP, 0x00000000)
T7214 1641:696.174 - 0.008ms returns 0
T7214 1641:696.181 JLINK_SetBPEx(Addr = 0x20000000, Type = 0xFFFFFFF2)
T7214 1641:696.187 - 0.008ms returns 0x0000000A
T7214 1641:696.193 JLINK_Go()
T7214 1641:696.203   CPU_ReadMem(4 bytes @ 0xE0001000)
T7214 1641:696.458   CPU_WriteMem(4 bytes @ 0xE0001000)
T7214 1641:698.576 - 2.392ms
T7214 1641:698.592 JLINK_IsHalted()
T7214 1641:699.592 - 1.035ms returns FALSE
T7214 1641:699.663 JLINK_HasError()
T7214 1641:704.552 JLINK_IsHalted()
T7214 1641:706.423   CPU_ReadMem(2 bytes @ 0x20000000)
T7214 1641:706.824 - 2.277ms returns TRUE
T7214 1641:706.835 JLINK_ReadReg(R15 (PC))
T7214 1641:706.843 - 0.010ms returns 0x20000000
T7214 1641:706.850 JLINK_ClrBPEx(BPHandle = 0x0000000A)
T7214 1641:706.856 - 0.008ms returns 0x00
T7214 1641:706.862 JLINK_ReadReg(R0)
T7214 1641:706.867 - 0.008ms returns 0x00000000
T7214 1641:707.281 JLINK_WriteMem(0x200001D0, 0x80 Bytes, ...)
T7214 1641:707.290   Data:  28 43 27 4D 96 08 B6 00 A8 51 25 4D 20 35 28 68 ...
T7214 1641:707.304   CPU_WriteMem(128 bytes @ 0x200001D0)
T7214 1641:708.140 - 0.888ms returns 0x80
T7214 1641:708.198 JLINK_HasError()
T7214 1641:708.235 JLINK_WriteReg(R0, 0x08000300)
T7214 1641:708.242 - 0.009ms returns 0
T7214 1641:708.249 JLINK_WriteReg(R1, 0x00000080)
T7214 1641:708.254 - 0.008ms returns 0
T7214 1641:708.260 JLINK_WriteReg(R2, 0x200001D0)
T7214 1641:708.265 - 0.007ms returns 0
T7214 1641:708.272 JLINK_WriteReg(R3, 0x00000000)
T7214 1641:708.277 - 0.007ms returns 0
T7214 1641:708.283 JLINK_WriteReg(R4, 0x00000000)
T7214 1641:708.288 - 0.007ms returns 0
T7214 1641:708.294 JLINK_WriteReg(R5, 0x00000000)
T7214 1641:708.299 - 0.007ms returns 0
T7214 1641:708.305 JLINK_WriteReg(R6, 0x00000000)
T7214 1641:708.311 - 0.007ms returns 0
T7214 1641:708.317 JLINK_WriteReg(R7, 0x00000000)
T7214 1641:708.322 - 0.007ms returns 0
T7214 1641:708.328 JLINK_WriteReg(R8, 0x00000000)
T7214 1641:708.333 - 0.008ms returns 0
T7214 1641:708.339 JLINK_WriteReg(R9, 0x200001C8)
T7214 1641:708.344 - 0.007ms returns 0
T7214 1641:708.351 JLINK_WriteReg(R10, 0x00000000)
T7214 1641:708.356 - 0.007ms returns 0
T7214 1641:708.362 JLINK_WriteReg(R11, 0x00000000)
T7214 1641:708.367 - 0.007ms returns 0
T7214 1641:708.373 JLINK_WriteReg(R12, 0x00000000)
T7214 1641:708.379 - 0.007ms returns 0
T7214 1641:708.384 JLINK_WriteReg(R13 (SP), 0x20000800)
T7214 1641:708.390 - 0.008ms returns 0
T7214 1641:708.396 JLINK_WriteReg(R14, 0x20000001)
T7214 1641:708.402 - 0.007ms returns 0
T7214 1641:708.408 JLINK_WriteReg(R15 (PC), 0x200000FA)
T7214 1641:708.413 - 0.007ms returns 0
T7214 1641:708.419 JLINK_WriteReg(XPSR, 0x01000000)
T7214 1641:708.428 - 0.013ms returns 0
T7214 1641:708.436 JLINK_WriteReg(MSP, 0x20000800)
T7214 1641:708.442 - 0.008ms returns 0
T7214 1641:708.448 JLINK_WriteReg(PSP, 0x20000800)
T7214 1641:708.453 - 0.007ms returns 0
T7214 1641:708.459 JLINK_WriteReg(CFBP, 0x00000000)
T7214 1641:708.464 - 0.007ms returns 0
T7214 1641:708.470 JLINK_SetBPEx(Addr = 0x20000000, Type = 0xFFFFFFF2)
T7214 1641:708.477 - 0.008ms returns 0x0000000B
T7214 1641:708.483 JLINK_Go()
T7214 1641:708.492   CPU_ReadMem(4 bytes @ 0xE0001000)
T7214 1641:708.752   CPU_WriteMem(4 bytes @ 0xE0001000)
T7214 1641:711.008 - 2.533ms
T7214 1641:711.026 JLINK_IsHalted()
T7214 1641:711.983 - 0.963ms returns FALSE
T7214 1641:711.998 JLINK_HasError()
T7214 1641:717.601 JLINK_IsHalted()
T7214 1641:719.600   CPU_ReadMem(2 bytes @ 0x20000000)
T7214 1641:719.885 - 2.289ms returns TRUE
T7214 1641:719.896 JLINK_ReadReg(R15 (PC))
T7214 1641:719.904 - 0.010ms returns 0x20000000
T7214 1641:719.911 JLINK_ClrBPEx(BPHandle = 0x0000000B)
T7214 1641:719.917 - 0.008ms returns 0x00
T7214 1641:719.923 JLINK_ReadReg(R0)
T7214 1641:719.929 - 0.008ms returns 0x00000000
T7214 1641:720.396 JLINK_WriteMem(0x200001D0, 0x80 Bytes, ...)
T7214 1641:720.407   Data:  35 40 B5 42 02 D1 05 46 25 43 28 46 04 4D 60 3D ...
T7214 1641:720.421   CPU_WriteMem(128 bytes @ 0x200001D0)
T7214 1641:721.267 - 0.903ms returns 0x80
T7214 1641:721.329 JLINK_HasError()
T7214 1641:721.364 JLINK_WriteReg(R0, 0x08000380)
T7214 1641:721.371 - 0.009ms returns 0
T7214 1641:721.378 JLINK_WriteReg(R1, 0x00000080)
T7214 1641:721.383 - 0.008ms returns 0
T7214 1641:721.390 JLINK_WriteReg(R2, 0x200001D0)
T7214 1641:721.395 - 0.008ms returns 0
T7214 1641:721.401 JLINK_WriteReg(R3, 0x00000000)
T7214 1641:721.407 - 0.007ms returns 0
T7214 1641:721.413 JLINK_WriteReg(R4, 0x00000000)
T7214 1641:721.418 - 0.007ms returns 0
T7214 1641:721.424 JLINK_WriteReg(R5, 0x00000000)
T7214 1641:721.430 - 0.008ms returns 0
T7214 1641:721.436 JLINK_WriteReg(R6, 0x00000000)
T7214 1641:721.441 - 0.008ms returns 0
T7214 1641:721.447 JLINK_WriteReg(R7, 0x00000000)
T7214 1641:721.453 - 0.007ms returns 0
T7214 1641:721.459 JLINK_WriteReg(R8, 0x00000000)
T7214 1641:721.464 - 0.007ms returns 0
T7214 1641:721.470 JLINK_WriteReg(R9, 0x200001C8)
T7214 1641:721.476 - 0.008ms returns 0
T7214 1641:721.482 JLINK_WriteReg(R10, 0x00000000)
T7214 1641:721.488 - 0.008ms returns 0
T7214 1641:721.494 JLINK_WriteReg(R11, 0x00000000)
T7214 1641:721.499 - 0.007ms returns 0
T7214 1641:721.505 JLINK_WriteReg(R12, 0x00000000)
T7214 1641:721.511 - 0.007ms returns 0
T7214 1641:721.517 JLINK_WriteReg(R13 (SP), 0x20000800)
T7214 1641:721.523 - 0.008ms returns 0
T7214 1641:721.529 JLINK_WriteReg(R14, 0x20000001)
T7214 1641:721.535 - 0.008ms returns 0
T7214 1641:721.541 JLINK_WriteReg(R15 (PC), 0x200000FA)
T7214 1641:721.548 - 0.009ms returns 0
T7214 1641:721.554 JLINK_WriteReg(XPSR, 0x01000000)
T7214 1641:721.562 - 0.011ms returns 0
T7214 1641:721.571 JLINK_WriteReg(MSP, 0x20000800)
T7214 1641:721.578 - 0.011ms returns 0
T7214 1641:721.586 JLINK_WriteReg(PSP, 0x20000800)
T7214 1641:721.591 - 0.008ms returns 0
T7214 1641:721.597 JLINK_WriteReg(CFBP, 0x00000000)
T7214 1641:721.603 - 0.008ms returns 0
T7214 1641:721.609 JLINK_SetBPEx(Addr = 0x20000000, Type = 0xFFFFFFF2)
T7214 1641:721.616 - 0.008ms returns 0x0000000C
T7214 1641:721.622 JLINK_Go()
T7214 1641:721.632   CPU_ReadMem(4 bytes @ 0xE0001000)
T7214 1641:722.000   CPU_WriteMem(4 bytes @ 0xE0001000)
T7214 1641:724.033 - 2.419ms
T7214 1641:724.048 JLINK_IsHalted()
T7214 1641:725.074 - 1.035ms returns FALSE
T7214 1641:725.089 JLINK_HasError()
T7214 1641:729.409 JLINK_IsHalted()
T7214 1641:731.256   CPU_ReadMem(2 bytes @ 0x20000000)
T7214 1641:731.578 - 2.175ms returns TRUE
T7214 1641:731.591 JLINK_ReadReg(R15 (PC))
T7214 1641:731.599 - 0.010ms returns 0x20000000
T7214 1641:731.606 JLINK_ClrBPEx(BPHandle = 0x0000000C)
T7214 1641:731.612 - 0.008ms returns 0x00
T7214 1641:731.618 JLINK_ReadReg(R0)
T7214 1641:731.624 - 0.008ms returns 0x00000000
T7214 1641:732.078 JLINK_WriteMem(0x200001D0, 0x80 Bytes, ...)
T7214 1641:732.092   Data:  00 68 00 28 1E D0 11 48 01 68 7D 20 C0 00 FF F7 ...
T7214 1641:732.113   CPU_WriteMem(128 bytes @ 0x200001D0)
T7214 1641:732.901 - 0.831ms returns 0x80
T7214 1641:732.915 JLINK_HasError()
T7214 1641:732.922 JLINK_WriteReg(R0, 0x08000400)
T7214 1641:732.930 - 0.010ms returns 0
T7214 1641:732.937 JLINK_WriteReg(R1, 0x00000080)
T7214 1641:732.942 - 0.008ms returns 0
T7214 1641:732.948 JLINK_WriteReg(R2, 0x200001D0)
T7214 1641:732.954 - 0.007ms returns 0
T7214 1641:732.960 JLINK_WriteReg(R3, 0x00000000)
T7214 1641:732.965 - 0.008ms returns 0
T7214 1641:732.972 JLINK_WriteReg(R4, 0x00000000)
T7214 1641:732.977 - 0.008ms returns 0
T7214 1641:732.983 JLINK_WriteReg(R5, 0x00000000)
T7214 1641:732.989 - 0.008ms returns 0
T7214 1641:732.995 JLINK_WriteReg(R6, 0x00000000)
T7214 1641:733.000 - 0.007ms returns 0
T7214 1641:733.006 JLINK_WriteReg(R7, 0x00000000)
T7214 1641:733.012 - 0.007ms returns 0
T7214 1641:733.018 JLINK_WriteReg(R8, 0x00000000)
T7214 1641:733.023 - 0.008ms returns 0
T7214 1641:733.030 JLINK_WriteReg(R9, 0x200001C8)
T7214 1641:733.035 - 0.008ms returns 0
T7214 1641:733.041 JLINK_WriteReg(R10, 0x00000000)
T7214 1641:733.047 - 0.007ms returns 0
T7214 1641:733.053 JLINK_WriteReg(R11, 0x00000000)
T7214 1641:733.058 - 0.008ms returns 0
T7214 1641:733.064 JLINK_WriteReg(R12, 0x00000000)
T7214 1641:733.070 - 0.008ms returns 0
T7214 1641:733.076 JLINK_WriteReg(R13 (SP), 0x20000800)
T7214 1641:733.082 - 0.008ms returns 0
T7214 1641:733.088 JLINK_WriteReg(R14, 0x20000001)
T7214 1641:733.093 - 0.007ms returns 0
T7214 1641:733.099 JLINK_WriteReg(R15 (PC), 0x200000FA)
T7214 1641:733.105 - 0.008ms returns 0
T7214 1641:733.111 JLINK_WriteReg(XPSR, 0x01000000)
T7214 1641:733.117 - 0.008ms returns 0
T7214 1641:733.123 JLINK_WriteReg(MSP, 0x20000800)
T7214 1641:733.128 - 0.008ms returns 0
T7214 1641:733.134 JLINK_WriteReg(PSP, 0x20000800)
T7214 1641:733.140 - 0.007ms returns 0
T7214 1641:733.146 JLINK_WriteReg(CFBP, 0x00000000)
T7214 1641:733.151 - 0.008ms returns 0
T7214 1641:733.158 JLINK_SetBPEx(Addr = 0x20000000, Type = 0xFFFFFFF2)
T7214 1641:733.164 - 0.009ms returns 0x0000000D
T7214 1641:733.171 JLINK_Go()
T7214 1641:733.181   CPU_ReadMem(4 bytes @ 0xE0001000)
T7214 1641:733.428   CPU_WriteMem(4 bytes @ 0xE0001000)
T7214 1641:735.402 - 2.238ms
T7214 1641:735.414 JLINK_IsHalted()
T7214 1641:736.428 - 1.022ms returns FALSE
T7214 1641:736.443 JLINK_HasError()
T7214 1641:740.249 JLINK_IsHalted()
T7214 1641:742.097   CPU_ReadMem(2 bytes @ 0x20000000)
T7214 1641:742.373 - 2.129ms returns TRUE
T7214 1641:742.384 JLINK_ReadReg(R15 (PC))
T7214 1641:742.392 - 0.010ms returns 0x20000000
T7214 1641:742.399 JLINK_ClrBPEx(BPHandle = 0x0000000D)
T7214 1641:742.404 - 0.008ms returns 0x00
T7214 1641:742.411 JLINK_ReadReg(R0)
T7214 1641:742.417 - 0.008ms returns 0x00000000
T7214 1641:742.830 JLINK_WriteMem(0x200001D0, 0x80 Bytes, ...)
T7214 1641:742.840   Data:  08 43 05 49 40 39 C8 63 08 46 C0 6B 09 04 08 40 ...
T7214 1641:742.853   CPU_WriteMem(128 bytes @ 0x200001D0)
T7214 1641:743.688 - 0.863ms returns 0x80
T7214 1641:743.700 JLINK_HasError()
T7214 1641:743.707 JLINK_WriteReg(R0, 0x08000480)
T7214 1641:743.714 - 0.009ms returns 0
T7214 1641:743.720 JLINK_WriteReg(R1, 0x00000080)
T7214 1641:743.726 - 0.008ms returns 0
T7214 1641:743.732 JLINK_WriteReg(R2, 0x200001D0)
T7214 1641:743.738 - 0.008ms returns 0
T7214 1641:743.744 JLINK_WriteReg(R3, 0x00000000)
T7214 1641:743.749 - 0.007ms returns 0
T7214 1641:743.755 JLINK_WriteReg(R4, 0x00000000)
T7214 1641:743.761 - 0.008ms returns 0
T7214 1641:743.767 JLINK_WriteReg(R5, 0x00000000)
T7214 1641:743.772 - 0.008ms returns 0
T7214 1641:743.779 JLINK_WriteReg(R6, 0x00000000)
T7214 1641:743.784 - 0.008ms returns 0
T7214 1641:743.790 JLINK_WriteReg(R7, 0x00000000)
T7214 1641:743.795 - 0.007ms returns 0
T7214 1641:743.802 JLINK_WriteReg(R8, 0x00000000)
T7214 1641:743.807 - 0.008ms returns 0
T7214 1641:743.813 JLINK_WriteReg(R9, 0x200001C8)
T7214 1641:743.825 - 0.014ms returns 0
T7214 1641:743.831 JLINK_WriteReg(R10, 0x00000000)
T7214 1641:743.837 - 0.008ms returns 0
T7214 1641:743.843 JLINK_WriteReg(R11, 0x00000000)
T7214 1641:743.848 - 0.007ms returns 0
T7214 1641:743.855 JLINK_WriteReg(R12, 0x00000000)
T7214 1641:743.860 - 0.008ms returns 0
T7214 1641:743.866 JLINK_WriteReg(R13 (SP), 0x20000800)
T7214 1641:743.872 - 0.008ms returns 0
T7214 1641:743.878 JLINK_WriteReg(R14, 0x20000001)
T7214 1641:743.884 - 0.008ms returns 0
T7214 1641:743.890 JLINK_WriteReg(R15 (PC), 0x200000FA)
T7214 1641:743.895 - 0.007ms returns 0
T7214 1641:743.902 JLINK_WriteReg(XPSR, 0x01000000)
T7214 1641:743.907 - 0.008ms returns 0
T7214 1641:743.913 JLINK_WriteReg(MSP, 0x20000800)
T7214 1641:743.919 - 0.008ms returns 0
T7214 1641:743.925 JLINK_WriteReg(PSP, 0x20000800)
T7214 1641:743.930 - 0.008ms returns 0
T7214 1641:743.937 JLINK_WriteReg(CFBP, 0x00000000)
T7214 1641:743.942 - 0.007ms returns 0
T7214 1641:743.948 JLINK_SetBPEx(Addr = 0x20000000, Type = 0xFFFFFFF2)
T7214 1641:743.955 - 0.009ms returns 0x0000000E
T7214 1641:743.961 JLINK_Go()
T7214 1641:743.989   CPU_ReadMem(4 bytes @ 0xE0001000)
T7214 1641:744.252   CPU_WriteMem(4 bytes @ 0xE0001000)
T7214 1641:746.399 - 2.445ms
T7214 1641:746.413 JLINK_IsHalted()
T7214 1641:747.434 - 1.026ms returns FALSE
T7214 1641:747.445 JLINK_HasError()
T7214 1641:751.316 JLINK_IsHalted()
T7214 1641:753.389   CPU_ReadMem(2 bytes @ 0x20000000)
T7214 1641:753.640 - 2.329ms returns TRUE
T7214 1641:753.651 JLINK_ReadReg(R15 (PC))
T7214 1641:753.658 - 0.010ms returns 0x20000000
T7214 1641:753.665 JLINK_ClrBPEx(BPHandle = 0x0000000E)
T7214 1641:753.671 - 0.008ms returns 0x00
T7214 1641:753.678 JLINK_ReadReg(R0)
T7214 1641:753.683 - 0.007ms returns 0x00000000
T7214 1641:754.106 JLINK_WriteMem(0x200001D0, 0x80 Bytes, ...)
